
T1460 000:342 SEGGER J-Link V4.36l Log File (0000ms, 0340ms total)
T1460 000:342 DLL Compiled: Dec  2 2011 18:52:36 (0000ms, 0340ms total)
T1460 000:342 Logging started @ 2014-04-15 16:58 (0000ms, 0340ms total)
T1460 000:342 JLINK_SetWarnOutHandler(...) (0000ms, 0340ms total)
T1460 000:342 JLINK_OpenEx(...)
Firmware: J-Link ARM V8 compiled Sep 22 2011 16:23:23
Hardware: V8.00
S/N: 20100214
Feature(s): RDI,FlashDL,FlashBP,JFlash,GDBFull  returns O.K. (0115ms, 0340ms total)
T1460 000:457 JLINK_SetErrorOutHandler(...) (0000ms, 0455ms total)
T1460 000:457 JLINK_ExecCommand("Device = STM32F107VC", ...)
                JLINK_ExecCommand("map ram 0x20000000 - 0x20004FFF", ...)  returns 0x00 (0000ms, 0000ms total)
                JLINK_AddMirrorAreaEx(Addr = 0x00000000, Size = 0x00000000) (0000ms, 0000ms total)
              Device "STM32F107VC" selected (256 KB flash, 20 KB RAM).  returns 0x00 (0002ms, 0455ms total)
T1460 000:460 JLINK_ExecCommand("ProjectFile = "D:\fhaha\git_ad7606_thread\bsp\stm32f107\JLinkSettings.ini"", ...)  returns 0x00 (0000ms, 0457ms total)
T1460 000:462 JLINK_ExecCommand("DisableConnectionTimeout", ...)  returns 0x00 (0000ms, 0457ms total)
T1460 000:463 JLINK_TIF_Select(JLINKARM_TIF_JTAG)  returns 0x00 (0000ms, 0457ms total)
T1460 000:463 JLINK_SetSpeed(10000) (0000ms, 0457ms total)
T1460 000:463 JLINK_GetHardwareVersion()  returns 0x13880 (0000ms, 0457ms total)
T1460 000:463 JLINK_GetDLLVersion()  returns 43612 (0000ms, 0457ms total)
T1460 000:463 JLINK_GetFirmwareString(...) (0000ms, 0457ms total)
T1460 000:468 JLINK_GetDLLVersion()  returns 43612 (0000ms, 0457ms total)
T1460 000:468 JLINK_GetCompileDateTime() (0000ms, 0457ms total)
T1460 000:470 JLINK_GetFirmwareString(...) (0000ms, 0457ms total)
T1460 000:471 JLINK_GetHardwareVersion()  returns 0x13880 (0000ms, 0457ms total)
T1460 000:477 JLINK_GetIdData(...) >0x2F8 JTAG>TotalIRLen = 9, IRPrint = 0x0011 >0x30 JTAG> >0x210 JTAG> >0x80 JTAG> >0x40 JTAG> >0x40 JTAG> >0x50 JTAG> >0x40 JTAG> >0x40 JTAG> >0x40 JTAG> >0x50 JTAG> >0x40 JTAG> >0x50 JTAG> >0x40 JTAG> >0x40 JTAG> >0x40 JTAG> >0x30 JTAG> >0x40 JTAG> >0x50 JTAG> >0x40 JTAG> >0x38 JTAG> >0x80 JTAG> >0x40 JTAG> >0x40 JTAG> >0x50 JTAG> >0x40 JTAG> >0x40 JTAG> >0x40 JTAG> >0x50 JTAG> >0x40 JTAG> >0x40 JTAG> >0x30 JTAG> >0x40 JTAG> >0x40 JTAG> >0x40 JTAG> >0x40 JTAG>
 >0x40 JTAG> >0x50 JTAG> >0x40 JTAG> >0x80 JTAG> >0x40 JTAG> >0x30 JTAG> >0x40 JTAG> >0x40 JTAG> >0x40 JTAG> >0x40 JTAG> >0x40 JTAG> >0x50 JTAG> >0x40 JTAG> >0x80 JTAG> >0x40 JTAG> >0x30 JTAG> >0x40 JTAG> >0x50 JTAG> >0x40 JTAG> >0x40 JTAG> >0x40 JTAG> >0x30 JTAG> >0x40 JTAG> >0x50 JTAG> >0x40 JTAG>Found Cortex-M3 r1p1, Little endian. >0x50 JTAG> >0x50 JTAG> >0x40 JTAG> >0x40 JTAG> >0x30 JTAG> >0x30 JTAG> >0x50 JTAG> >0x40 JTAG> >0x80 JTAG> >0x40 JTAG> >0x30 JTAG> >0x40 JTAG> >0x50 JTAG> >0x40 JTAG>
 >0x40 JTAG> >0x40 JTAG> >0x30 JTAG> >0x30 JTAG> >0x50 JTAG> >0x40 JTAG> >0x80 JTAG> >0x40 JTAG> >0x30 JTAG> >0x40 JTAG> >0x50 JTAG> >0x40 JTAG>TPIU fitted. >0x40 JTAG> >0x40 JTAG> >0x30 JTAG> >0x40 JTAG> >0x50 JTAG> >0x40 JTAG>ETM fitted. >0x40 JTAG> >0x40 JTAG> >0x30 JTAG> >0x40 JTAG> >0x50 JTAG> >0x40 JTAG> >0x40 JTAG> >0x40 JTAG> >0x30 JTAG> >0x40 JTAG> >0x50 JTAG> >0x40 JTAG>  FPUnit: 6 code (BP) slots and 2 literal slots >0x40 JTAG> >0x40 JTAG> >0x30 JTAG> >0x40 JTAG> >0x50 JTAG> >0x40 JTAG>
 >0x40 JTAG> >0x40 JTAG> >0x30 JTAG> >0x30 JTAG> >0x50 JTAG> >0x40 JTAG> >0x80 JTAG> >0x40 JTAG> >0x30 JTAG> >0x40 JTAG> >0x50 JTAG> >0x40 JTAG> ScanLen=9 NumDevices=2 aId[0]=0x3BA00477 aIrRead[0]=0 aScanLen[0]=0 aScanRead[0]=0 (0089ms, 0457ms total)
T1460 000:566 JLINK_JTAG_GetDeviceID(DeviceIndex = 0)  returns 0x3BA00477 (0000ms, 0546ms total)
T1460 000:566 JLINK_JTAG_GetDeviceInfo(DeviceIndex = 0)  returns 0x00 (0000ms, 0546ms total)
T1460 000:566 JLINK_JTAG_GetDeviceID(DeviceIndex = 1)  returns 0x6418041 (0000ms, 0546ms total)
T1460 000:566 JLINK_JTAG_GetDeviceInfo(DeviceIndex = 1)  returns 0x00 (0000ms, 0546ms total)
T1460 000:566 JLINK_GetDebugInfo(0x100) -- Value=0xE00FF003  returns 0x00 (0000ms, 0546ms total)
T1460 000:568 JLINK_ReadMem (0xE00FFFF0, 0x0010 Bytes, ...) -- CPU is running -- CPU_ReadMem(16 bytes @ 0xE00FFFF0) -- Data:  0D 00 00 00 10 00 00 00 05 00 00 00 B1 00 00 00  returns 0x00 (0005ms, 0547ms total)
T1460 000:573 JLINK_ReadMem (0xE00FFFD0, 0x0020 Bytes, ...) -- CPU is running -- CPU_ReadMem(32 bytes @ 0xE00FFFD0) -- Data:  00 00 00 00 00 00 00 00 00 00 00 00 00 00 00 00 ...  returns 0x00 (0001ms, 0552ms total)
T1460 000:574 JLINK_ReadMem (0xE00FF000, 0x0018 Bytes, ...) -- CPU is running -- CPU_ReadMem(24 bytes @ 0xE00FF000) -- Data:  03 F0 F0 FF 03 20 F0 FF 03 30 F0 FF 03 10 F0 FF ...  returns 0x00 (0002ms, 0553ms total)
T1460 000:576 JLINK_ReadMemU32(0xE000ED00, 0x0001 Items, ...) -- CPU is running -- CPU_ReadMem(4 bytes @ 0xE000ED00) -- Data:  31 C2 1F 41  returns 0x01 (0001ms, 0555ms total)
T1460 000:577 JLINK_SetResetType(JLINKARM_RESET_TYPE_NORMAL)  returns JLINKARM_RESET_TYPE_NORMAL (0000ms, 0556ms total)
T1460 000:577 JLINK_Reset() >0x308 JTAG>TotalIRLen = 9, IRPrint = 0x0011 >0x30 JTAG> >0x210 JTAG> >0x80 JTAG> >0x40 JTAG> >0x40 JTAG> >0x50 JTAG> >0x40 JTAG> >0x40 JTAG> >0x40 JTAG> >0x50 JTAG> >0x40 JTAG> >0x50 JTAG> >0x40 JTAG> >0x40 JTAG> >0x40 JTAG> >0x30 JTAG> >0x40 JTAG> >0x50 JTAG> >0x40 JTAG> >0x38 JTAG> >0x80 JTAG> >0x40 JTAG> >0x40 JTAG> >0x50 JTAG> >0x40 JTAG> >0x40 JTAG> >0x40 JTAG> >0x50 JTAG> >0x40 JTAG> >0x40 JTAG> >0x30 JTAG> >0x40 JTAG> >0x40 JTAG> >0x40 JTAG> >0x40 JTAG> >0x40 JTAG>
 >0x50 JTAG> >0x40 JTAG> >0x80 JTAG> >0x40 JTAG> >0x30 JTAG> >0x40 JTAG> >0x40 JTAG> >0x40 JTAG> >0x40 JTAG> >0x40 JTAG> >0x50 JTAG> >0x40 JTAG> >0x80 JTAG> >0x40 JTAG> >0x30 JTAG> >0x40 JTAG> >0x50 JTAG> >0x40 JTAG> >0x40 JTAG> >0x40 JTAG> >0x30 JTAG> >0x40 JTAG> >0x50 JTAG> >0x40 JTAG>Found Cortex-M3 r1p1, Little endian. >0x50 JTAG> >0x50 JTAG> >0x40 JTAG> >0x40 JTAG> >0x30 JTAG> >0x30 JTAG> >0x50 JTAG> >0x40 JTAG> >0x80 JTAG> >0x40 JTAG> >0x30 JTAG> >0x40 JTAG> >0x50 JTAG> >0x40 JTAG> >0x40 JTAG>
 >0x40 JTAG> >0x30 JTAG> >0x40 JTAG> >0x50 JTAG> >0x40 JTAG>TPIU fitted. >0x40 JTAG> >0x40 JTAG> >0x30 JTAG> >0x40 JTAG> >0x50 JTAG> >0x40 JTAG>ETM fitted. >0x40 JTAG> >0x40 JTAG> >0x30 JTAG> >0x40 JTAG> >0x50 JTAG> >0x40 JTAG> >0x40 JTAG> >0x40 JTAG> >0x30 JTAG> >0x40 JTAG> >0x50 JTAG> >0x40 JTAG>  FPUnit: 6 code (BP) slots and 2 literal slots >0x40 JTAG> >0x40 JTAG> >0x30 JTAG> >0x40 JTAG> >0x50 JTAG> >0x40 JTAG> >0x40 JTAG> >0x40 JTAG> >0x30 JTAG> >0x40 JTAG> >0x50 JTAG> >0x40 JTAG> >0x48 JTAG>
 >0x80 JTAG> >0x40 JTAG> >0x40 JTAG> >0x50 JTAG> >0x40 JTAG> >0x40 JTAG> >0x40 JTAG> >0x50 JTAG> >0x40 JTAG> >0x40 JTAG> >0x30 JTAG> >0x40 JTAG> >0x40 JTAG> >0x40 JTAG> >0x40 JTAG> >0x40 JTAG> >0x50 JTAG> >0x40 JTAG> >0x80 JTAG> >0x40 JTAG> >0x30 JTAG> >0x40 JTAG> >0x40 JTAG> >0x40 JTAG> >0x40 JTAG> >0x40 JTAG> >0x50 JTAG> >0x40 JTAG> >0x80 JTAG> >0x40 JTAG> >0x30 JTAG> >0x40 JTAG> >0x50 JTAG> >0x40 JTAG> >0x40 JTAG> >0x40 JTAG> >0x30 JTAG> >0x40 JTAG> >0x50 JTAG> >0x40 JTAG>
Found Cortex-M3 r1p1, Little endian. >0x50 JTAG> >0x50 JTAG> >0x40 JTAG> >0x40 JTAG> >0x30 JTAG> >0x30 JTAG> >0x50 JTAG> >0x40 JTAG> >0x80 JTAG> >0x40 JTAG> >0x30 JTAG> >0x40 JTAG> >0x50 JTAG> >0x40 JTAG> >0x40 JTAG> >0x40 JTAG> >0x30 JTAG> >0x40 JTAG> >0x50 JTAG> >0x40 JTAG>TPIU fitted. >0x40 JTAG> >0x40 JTAG> >0x30 JTAG> >0x40 JTAG> >0x50 JTAG> >0x40 JTAG>ETM fitted. >0x40 JTAG> >0x40 JTAG> >0x30 JTAG> >0x40 JTAG> >0x50 JTAG> >0x40 JTAG> >0x40 JTAG> >0x40 JTAG> >0x30 JTAG> >0x40 JTAG> >0x50 JTAG>
 >0x40 JTAG>  FPUnit: 6 code (BP) slots and 2 literal slots >0x40 JTAG> >0x40 JTAG> >0x30 JTAG> >0x40 JTAG> >0x50 JTAG> >0x40 JTAG> >0x40 JTAG> >0x40 JTAG> >0x30 JTAG> >0x40 JTAG> >0x50 JTAG> >0x40 JTAG> -- CPU is running -- CPU_WriteMem(4 bytes @ 0xE000EDF0) -- CPU is running -- CPU_WriteMem(4 bytes @ 0xE000EDFC) -- CPU is running -- CPU_WriteMem(4 bytes @ 0xE000ED0C) -- CPU is running -- CPU_ReadMem(4 bytes @ 0xE000EDF0) -- CPU is running -- CPU_ReadMem(4 bytes @ 0xE000EDF0) -- CPU is running
 -- CPU_WriteMem(4 bytes @ 0xE000EDF0) -- CPU is running -- CPU_WriteMem(4 bytes @ 0xE000EDFC) -- CPU is running -- CPU_ReadMem(4 bytes @ 0xE000EDF0) >0x90 JTAG> >0x40 JTAG> >0x30 JTAG> >0x40 JTAG> >0x50 JTAG> >0x40 JTAG> -- CPU_WriteMem(4 bytes @ 0xE000EDFC) -- CPU_WriteMem(4 bytes @ 0xE0001028) -- CPU_WriteMem(4 bytes @ 0xE0001038) -- CPU_WriteMem(4 bytes @ 0xE0001048) -- CPU_WriteMem(4 bytes @ 0xE0001058) (0195ms, 0556ms total)
T1460 000:772 JLINK_Halt()  returns 0x00 (0000ms, 0751ms total)
T1460 000:772 JLINK_IsHalted()  returns TRUE (0000ms, 0751ms total)
T1460 000:772 JLINK_ReadMemU32(0xE000EDF0, 0x0001 Items, ...) -- CPU_ReadMem(4 bytes @ 0xE000EDF0) -- Data:  03 00 03 00  returns 0x01 (0001ms, 0751ms total)
T1460 000:773 JLINK_WriteU32(0xE000EDF0, 0xA05F0003) -- CPU_WriteMem(4 bytes @ 0xE000EDF0)  returns 0x00 (0001ms, 0752ms total)
T1460 000:774 JLINK_WriteU32(0xE000EDFC, 0x01000000) -- CPU_WriteMem(4 bytes @ 0xE000EDFC)  returns 0x00 (0001ms, 0753ms total)
T1460 000:781 JLINK_GetHWStatus(...)  returns 0x00 (0001ms, 0754ms total)
T1460 000:786 JLINK_GetNumBPUnits(Type = 0xFFFFFF00)  returns 0x06 (0000ms, 0755ms total)
T1460 000:786 JLINK_GetNumBPUnits(Type = 0xF0)  returns 0x2000 (0000ms, 0755ms total)
T1460 000:786 JLINK_GetNumWPUnits()  returns 0x04 (0000ms, 0755ms total)
T1460 000:791 JLINK_GetSpeed()  returns 0x2580 (0000ms, 0755ms total)
T1460 000:793 JLINK_ReadMemU32(0xE000E004, 0x0001 Items, ...) -- CPU_ReadMem(4 bytes @ 0xE000E004) -- Data:  02 00 00 00  returns 0x01 (0001ms, 0755ms total)
T1460 000:794 JLINK_ReadMemU32(0xE000E004, 0x0001 Items, ...) -- CPU_ReadMem(4 bytes @ 0xE000E004) -- Data:  02 00 00 00  returns 0x01 (0001ms, 0756ms total)
T1460 000:795 JLINK_WriteMem(0xE0001000, 0x001C Bytes, ...) -- Data:  01 00 00 00 00 00 00 00 00 00 00 00 00 00 00 00 ... -- CPU_WriteMem(28 bytes @ 0xE0001000)  returns 0x1C (0001ms, 0757ms total)
T1460 000:796 JLINK_ReadMem (0xE0001000, 0x001C Bytes, ...) -- CPU_ReadMem(28 bytes @ 0xE0001000) -- Data:  01 00 00 40 00 00 00 00 00 00 00 00 00 00 00 00 ...  returns 0x00 (0001ms, 0758ms total)
T1460 000:797 JLINK_Halt()  returns 0x00 (0000ms, 0759ms total)
T1460 000:797 JLINK_IsHalted()  returns TRUE (0000ms, 0759ms total)
T1460 000:799 JLINK_WriteMem(0x20000000, 0x0164 Bytes, ...) -- Data:  00 BE 0A E0 0D 78 2D 06 68 40 08 24 40 00 00 D3 ... -- CPU_WriteMem(356 bytes @ 0x20000000)  returns 0x164 (0003ms, 0759ms total)
T1460 000:802 JLINK_WriteReg(R0, 0x08000000)  returns 0x00 (0000ms, 0762ms total)
T1460 000:802 JLINK_WriteReg(R1, 0x017D7840)  returns 0x00 (0000ms, 0762ms total)
T1460 000:802 JLINK_WriteReg(R2, 0x00000001)  returns 0x00 (0000ms, 0762ms total)
T1460 000:802 JLINK_WriteReg(R3, 0x00000000)  returns 0x00 (0000ms, 0762ms total)
T1460 000:802 JLINK_WriteReg(R4, 0x00000000)  returns 0x00 (0000ms, 0762ms total)
T1460 000:802 JLINK_WriteReg(R5, 0x00000000)  returns 0x00 (0000ms, 0762ms total)
T1460 000:802 JLINK_WriteReg(R6, 0x00000000)  returns 0x00 (0000ms, 0762ms total)
T1460 000:802 JLINK_WriteReg(R7, 0x00000000)  returns 0x00 (0000ms, 0762ms total)
T1460 000:802 JLINK_WriteReg(R8, 0x00000000)  returns 0x00 (0000ms, 0762ms total)
T1460 000:802 JLINK_WriteReg(R9, 0x20000160)  returns 0x00 (0000ms, 0762ms total)
T1460 000:802 JLINK_WriteReg(R10, 0x00000000)  returns 0x00 (0000ms, 0762ms total)
T1460 000:802 JLINK_WriteReg(R11, 0x00000000)  returns 0x00 (0000ms, 0762ms total)
T1460 000:802 JLINK_WriteReg(R12, 0x00000000)  returns 0x00 (0000ms, 0762ms total)
T1460 000:802 JLINK_WriteReg(R13, 0x20000800)  returns 0x00 (0000ms, 0762ms total)
T1460 000:802 JLINK_WriteReg(R14, 0x20000001)  returns 0x00 (0000ms, 0762ms total)
T1460 000:802 JLINK_WriteReg(R15, 0x20000038)  returns 0x00 (0000ms, 0762ms total)
T1460 000:802 JLINK_WriteReg(XPSR, 0x01000000)  returns 0x00 (0000ms, 0762ms total)
T1460 000:802 JLINK_WriteReg(MSP, 0x20000800)  returns 0x00 (0000ms, 0762ms total)
T1460 000:802 JLINK_WriteReg(PSP, 0x20000800)  returns 0x00 (0000ms, 0762ms total)
T1460 000:802 JLINK_WriteReg(CFBP, 0x00000000)  returns 0x00 (0000ms, 0762ms total)
T1460 000:802 JLINK_SetBPEx(Addr = 0x20000000, Type = 0xFFFFFFF2) -- CPU_ReadMem(2 bytes @ 0x20000000)  returns 0x00000001 (0001ms, 0762ms total)
T1460 000:803 JLINK_Go() -- CPU_WriteMem(2 bytes @ 0x20000000) -- CPU_WriteMem(4 bytes @ 0xE0002008) -- CPU_WriteMem(4 bytes @ 0xE000200C) -- CPU_WriteMem(4 bytes @ 0xE0002010) -- CPU_WriteMem(4 bytes @ 0xE0002014) -- CPU_WriteMem(4 bytes @ 0xE0002018) -- CPU_WriteMem(4 bytes @ 0xE000201C) (0009ms, 0763ms total)
T1460 000:812 JLINK_IsHalted() -- CPU_ReadMem(2 bytes @ 0x20000000)  returns TRUE (0004ms, 0772ms total)
T1460 000:816 JLINK_ReadReg(R15)  returns 0x20000000 (0000ms, 0772ms total)
T1460 000:816 JLINK_ClrBPEx(BPHandle = 0x00000001)  returns 0x00 (0000ms, 0772ms total)
T1460 000:816 JLINK_ReadReg(R0)  returns 0x00000000 (0000ms, 0772ms total)
T1460 000:816 JLINK_WriteReg(R0, 0x08000000)  returns 0x00 (0000ms, 0772ms total)
T1460 000:816 JLINK_WriteReg(R1, 0x017D7840)  returns 0x00 (0000ms, 0772ms total)
T1460 000:816 JLINK_WriteReg(R2, 0x00000001)  returns 0x00 (0000ms, 0772ms total)
T1460 000:816 JLINK_WriteReg(R3, 0x00000000)  returns 0x00 (0000ms, 0772ms total)
T1460 000:816 JLINK_WriteReg(R4, 0x00000000)  returns 0x00 (0000ms, 0772ms total)
T1460 000:816 JLINK_WriteReg(R5, 0x00000000)  returns 0x00 (0000ms, 0772ms total)
T1460 000:816 JLINK_WriteReg(R6, 0x00000000)  returns 0x00 (0000ms, 0772ms total)
T1460 000:816 JLINK_WriteReg(R7, 0x00000000)  returns 0x00 (0000ms, 0772ms total)
T1460 000:816 JLINK_WriteReg(R8, 0x00000000)  returns 0x00 (0000ms, 0772ms total)
T1460 000:816 JLINK_WriteReg(R9, 0x20000160)  returns 0x00 (0000ms, 0772ms total)
T1460 000:816 JLINK_WriteReg(R10, 0x00000000)  returns 0x00 (0000ms, 0772ms total)
T1460 000:817 JLINK_WriteReg(R11, 0x00000000)  returns 0x00 (0000ms, 0773ms total)
T1460 000:817 JLINK_WriteReg(R12, 0x00000000)  returns 0x00 (0000ms, 0773ms total)
T1460 000:817 JLINK_WriteReg(R13, 0x20000800)  returns 0x00 (0000ms, 0773ms total)
T1460 000:817 JLINK_WriteReg(R14, 0x20000001)  returns 0x00 (0000ms, 0773ms total)
T1460 000:817 JLINK_WriteReg(R15, 0x2000007C)  returns 0x00 (0000ms, 0773ms total)
T1460 000:817 JLINK_WriteReg(XPSR, 0x01000000)  returns 0x00 (0000ms, 0773ms total)
T1460 000:817 JLINK_WriteReg(MSP, 0x20000800)  returns 0x00 (0000ms, 0773ms total)
T1460 000:817 JLINK_WriteReg(PSP, 0x20000800)  returns 0x00 (0000ms, 0773ms total)
T1460 000:817 JLINK_WriteReg(CFBP, 0x00000000)  returns 0x00 (0000ms, 0773ms total)
T1460 000:817 JLINK_SetBPEx(Addr = 0x20000000, Type = 0xFFFFFFF2)  returns 0x00000002 (0000ms, 0773ms total)
T1460 000:817 JLINK_Go() -- CPU_WriteMem(4 bytes @ 0xE0002008) -- CPU_WriteMem(4 bytes @ 0xE000200C) -- CPU_WriteMem(4 bytes @ 0xE0002010) -- CPU_WriteMem(4 bytes @ 0xE0002014) -- CPU_WriteMem(4 bytes @ 0xE0002018) -- CPU_WriteMem(4 bytes @ 0xE000201C) (0006ms, 0773ms total)
T1460 000:823 JLINK_IsHalted()  returns FALSE (0000ms, 0779ms total)
T1460 000:873 JLINK_IsHalted() -- CPU_ReadMem(2 bytes @ 0x20000000)  returns TRUE (0004ms, 0779ms total)
T1460 000:877 JLINK_ReadReg(R15)  returns 0x20000000 (0000ms, 0779ms total)
T1460 000:877 JLINK_ClrBPEx(BPHandle = 0x00000002)  returns 0x00 (0000ms, 0779ms total)
T1460 000:877 JLINK_ReadReg(R0)  returns 0x00000000 (0000ms, 0779ms total)
T1460 000:927 JLINK_WriteReg(R0, 0x00000001)  returns 0x00 (0000ms, 0779ms total)
T1460 000:927 JLINK_WriteReg(R1, 0x017D7840)  returns 0x00 (0000ms, 0779ms total)
T1460 000:927 JLINK_WriteReg(R2, 0x00000001)  returns 0x00 (0000ms, 0779ms total)
T1460 000:927 JLINK_WriteReg(R3, 0x00000000)  returns 0x00 (0000ms, 0779ms total)
T1460 000:927 JLINK_WriteReg(R4, 0x00000000)  returns 0x00 (0000ms, 0779ms total)
T1460 000:927 JLINK_WriteReg(R5, 0x00000000)  returns 0x00 (0000ms, 0779ms total)
T1460 000:927 JLINK_WriteReg(R6, 0x00000000)  returns 0x00 (0000ms, 0779ms total)
T1460 000:927 JLINK_WriteReg(R7, 0x00000000)  returns 0x00 (0000ms, 0779ms total)
T1460 000:927 JLINK_WriteReg(R8, 0x00000000)  returns 0x00 (0000ms, 0779ms total)
T1460 000:927 JLINK_WriteReg(R9, 0x20000160)  returns 0x00 (0000ms, 0779ms total)
T1460 000:927 JLINK_WriteReg(R10, 0x00000000)  returns 0x00 (0000ms, 0779ms total)
T1460 000:927 JLINK_WriteReg(R11, 0x00000000)  returns 0x00 (0000ms, 0779ms total)
T1460 000:927 JLINK_WriteReg(R12, 0x00000000)  returns 0x00 (0000ms, 0779ms total)
T1460 000:927 JLINK_WriteReg(R13, 0x20000800)  returns 0x00 (0000ms, 0779ms total)
T1460 000:927 JLINK_WriteReg(R14, 0x20000001)  returns 0x00 (0000ms, 0779ms total)
T1460 000:927 JLINK_WriteReg(R15, 0x2000006A)  returns 0x00 (0000ms, 0779ms total)
T1460 000:927 JLINK_WriteReg(XPSR, 0x01000000)  returns 0x00 (0000ms, 0779ms total)
T1460 000:927 JLINK_WriteReg(MSP, 0x20000800)  returns 0x00 (0000ms, 0779ms total)
T1460 000:927 JLINK_WriteReg(PSP, 0x20000800)  returns 0x00 (0000ms, 0779ms total)
T1460 000:927 JLINK_WriteReg(CFBP, 0x00000000)  returns 0x00 (0000ms, 0779ms total)
T1460 000:927 JLINK_SetBPEx(Addr = 0x20000000, Type = 0xFFFFFFF2)  returns 0x00000003 (0000ms, 0779ms total)
T1460 000:927 JLINK_Go() -- CPU_WriteMem(4 bytes @ 0xE0002008) -- CPU_WriteMem(4 bytes @ 0xE000200C) -- CPU_WriteMem(4 bytes @ 0xE0002010) -- CPU_WriteMem(4 bytes @ 0xE0002014) -- CPU_WriteMem(4 bytes @ 0xE0002018) -- CPU_WriteMem(4 bytes @ 0xE000201C) (0007ms, 0779ms total)
T1460 000:934 JLINK_IsHalted() -- CPU_ReadMem(2 bytes @ 0x20000000)  returns TRUE (0004ms, 0786ms total)
T1460 000:938 JLINK_ReadReg(R15)  returns 0x20000000 (0000ms, 0786ms total)
T1460 000:938 JLINK_ClrBPEx(BPHandle = 0x00000003)  returns 0x00 (0000ms, 0786ms total)
T1460 000:938 JLINK_ReadReg(R0)  returns 0x00000000 (0000ms, 0786ms total)
T1460 000:941 JLINK_WriteMem(0x20000000, 0x0164 Bytes, ...) -- Data:  00 BE 0A E0 0D 78 2D 06 68 40 08 24 40 00 00 D3 ... -- CPU_WriteMem(356 bytes @ 0x20000000)  returns 0x164 (0003ms, 0786ms total)
T1460 000:944 JLINK_WriteReg(R0, 0x08000000)  returns 0x00 (0000ms, 0789ms total)
T1460 000:944 JLINK_WriteReg(R1, 0x017D7840)  returns 0x00 (0000ms, 0789ms total)
T1460 000:944 JLINK_WriteReg(R2, 0x00000002)  returns 0x00 (0000ms, 0789ms total)
T1460 000:944 JLINK_WriteReg(R3, 0x00000000)  returns 0x00 (0000ms, 0789ms total)
T1460 000:944 JLINK_WriteReg(R4, 0x00000000)  returns 0x00 (0000ms, 0789ms total)
T1460 000:944 JLINK_WriteReg(R5, 0x00000000)  returns 0x00 (0000ms, 0789ms total)
T1460 000:944 JLINK_WriteReg(R6, 0x00000000)  returns 0x00 (0000ms, 0789ms total)
T1460 000:944 JLINK_WriteReg(R7, 0x00000000)  returns 0x00 (0000ms, 0789ms total)
T1460 000:944 JLINK_WriteReg(R8, 0x00000000)  returns 0x00 (0000ms, 0789ms total)
T1460 000:944 JLINK_WriteReg(R9, 0x20000160)  returns 0x00 (0001ms, 0789ms total)
T1460 000:945 JLINK_WriteReg(R10, 0x00000000)  returns 0x00 (0000ms, 0790ms total)
T1460 000:945 JLINK_WriteReg(R11, 0x00000000)  returns 0x00 (0000ms, 0790ms total)
T1460 000:945 JLINK_WriteReg(R12, 0x00000000)  returns 0x00 (0000ms, 0790ms total)
T1460 000:945 JLINK_WriteReg(R13, 0x20000800)  returns 0x00 (0000ms, 0790ms total)
T1460 000:945 JLINK_WriteReg(R14, 0x20000001)  returns 0x00 (0000ms, 0790ms total)
T1460 000:945 JLINK_WriteReg(R15, 0x20000038)  returns 0x00 (0000ms, 0790ms total)
T1460 000:945 JLINK_WriteReg(XPSR, 0x01000000)  returns 0x00 (0000ms, 0790ms total)
T1460 000:945 JLINK_WriteReg(MSP, 0x20000800)  returns 0x00 (0000ms, 0790ms total)
T1460 000:945 JLINK_WriteReg(PSP, 0x20000800)  returns 0x00 (0000ms, 0790ms total)
T1460 000:945 JLINK_WriteReg(CFBP, 0x00000000)  returns 0x00 (0000ms, 0790ms total)
T1460 000:945 JLINK_SetBPEx(Addr = 0x20000000, Type = 0xFFFFFFF2) -- CPU_ReadMem(2 bytes @ 0x20000000)  returns 0x00000004 (0000ms, 0790ms total)
T1460 000:945 JLINK_Go() -- CPU_WriteMem(2 bytes @ 0x20000000) -- CPU_WriteMem(4 bytes @ 0xE0002008) -- CPU_WriteMem(4 bytes @ 0xE000200C) -- CPU_WriteMem(4 bytes @ 0xE0002010) -- CPU_WriteMem(4 bytes @ 0xE0002014) -- CPU_WriteMem(4 bytes @ 0xE0002018) -- CPU_WriteMem(4 bytes @ 0xE000201C) (0007ms, 0790ms total)
T1460 000:952 JLINK_IsHalted() -- CPU_ReadMem(2 bytes @ 0x20000000)  returns TRUE (0004ms, 0797ms total)
T1460 000:956 JLINK_ReadReg(R15)  returns 0x20000000 (0000ms, 0797ms total)
T1460 000:956 JLINK_ClrBPEx(BPHandle = 0x00000004)  returns 0x00 (0000ms, 0797ms total)
T1460 000:956 JLINK_ReadReg(R0)  returns 0x00000000 (0000ms, 0797ms total)
T1460 000:957 JLINK_WriteMem(0x20000164, 0x0400 Bytes, ...) -- Data:  E8 54 00 20 81 BD 01 08 69 04 00 08 A5 76 00 08 ... -- CPU_WriteMem(1024 bytes @ 0x20000164)  returns 0x400 (0006ms, 0797ms total)
T1460 000:963 JLINK_WriteReg(R0, 0x08000000)  returns 0x00 (0000ms, 0803ms total)
T1460 000:963 JLINK_WriteReg(R1, 0x00000400)  returns 0x00 (0000ms, 0803ms total)
T1460 000:963 JLINK_WriteReg(R2, 0x20000164)  returns 0x00 (0000ms, 0803ms total)
T1460 000:963 JLINK_WriteReg(R3, 0x00000000)  returns 0x00 (0000ms, 0803ms total)
T1460 000:963 JLINK_WriteReg(R4, 0x00000000)  returns 0x00 (0000ms, 0803ms total)
T1460 000:963 JLINK_WriteReg(R5, 0x00000000)  returns 0x00 (0000ms, 0803ms total)
T1460 000:963 JLINK_WriteReg(R6, 0x00000000)  returns 0x00 (0000ms, 0803ms total)
T1460 000:963 JLINK_WriteReg(R7, 0x00000000)  returns 0x00 (0000ms, 0803ms total)
T1460 000:963 JLINK_WriteReg(R8, 0x00000000)  returns 0x00 (0000ms, 0803ms total)
T1460 000:963 JLINK_WriteReg(R9, 0x20000160)  returns 0x00 (0000ms, 0803ms total)
T1460 000:963 JLINK_WriteReg(R10, 0x00000000)  returns 0x00 (0000ms, 0803ms total)
T1460 000:963 JLINK_WriteReg(R11, 0x00000000)  returns 0x00 (0000ms, 0803ms total)
T1460 000:963 JLINK_WriteReg(R12, 0x00000000)  returns 0x00 (0000ms, 0803ms total)
T1460 000:963 JLINK_WriteReg(R13, 0x20000800)  returns 0x00 (0000ms, 0803ms total)
T1460 000:963 JLINK_WriteReg(R14, 0x20000001)  returns 0x00 (0000ms, 0803ms total)
T1460 000:963 JLINK_WriteReg(R15, 0x200000F4)  returns 0x00 (0000ms, 0803ms total)
T1460 000:963 JLINK_WriteReg(XPSR, 0x01000000)  returns 0x00 (0000ms, 0803ms total)
T1460 000:963 JLINK_WriteReg(MSP, 0x20000800)  returns 0x00 (0000ms, 0803ms total)
T1460 000:963 JLINK_WriteReg(PSP, 0x20000800)  returns 0x00 (0000ms, 0803ms total)
T1460 000:963 JLINK_WriteReg(CFBP, 0x00000000)  returns 0x00 (0000ms, 0803ms total)
T1460 000:963 JLINK_SetBPEx(Addr = 0x20000000, Type = 0xFFFFFFF2)  returns 0x00000005 (0000ms, 0803ms total)
T1460 000:963 JLINK_Go() -- CPU_WriteMem(4 bytes @ 0xE0002008) -- CPU_WriteMem(4 bytes @ 0xE000200C) -- CPU_WriteMem(4 bytes @ 0xE0002010) -- CPU_WriteMem(4 bytes @ 0xE0002014) -- CPU_WriteMem(4 bytes @ 0xE0002018) -- CPU_WriteMem(4 bytes @ 0xE000201C) (0008ms, 0803ms total)
T1460 000:971 JLINK_IsHalted()  returns FALSE (0001ms, 0811ms total)
T1460 001:022 JLINK_IsHalted() -- CPU_ReadMem(2 bytes @ 0x20000000)  returns TRUE (0004ms, 0811ms total)
T1460 001:026 JLINK_ReadReg(R15)  returns 0x20000000 (0000ms, 0811ms total)
T1460 001:026 JLINK_ClrBPEx(BPHandle = 0x00000005)  returns 0x00 (0000ms, 0811ms total)
T1460 001:026 JLINK_ReadReg(R0)  returns 0x00000000 (0000ms, 0811ms total)
T1460 001:027 JLINK_WriteMem(0x20000164, 0x0400 Bytes, ...) -- Data:  13 07 1E 0E 14 4B 00 F0 0F 05 2D 1F 5E 55 03 E0 ... -- CPU_WriteMem(1024 bytes @ 0x20000164)  returns 0x400 (0005ms, 0811ms total)
T1460 001:032 JLINK_WriteReg(R0, 0x08000400)  returns 0x00 (0000ms, 0816ms total)
T1460 001:032 JLINK_WriteReg(R1, 0x00000400)  returns 0x00 (0000ms, 0816ms total)
T1460 001:032 JLINK_WriteReg(R2, 0x20000164)  returns 0x00 (0000ms, 0816ms total)
T1460 001:032 JLINK_WriteReg(R3, 0x00000000)  returns 0x00 (0000ms, 0816ms total)
T1460 001:032 JLINK_WriteReg(R4, 0x00000000)  returns 0x00 (0000ms, 0816ms total)
T1460 001:032 JLINK_WriteReg(R5, 0x00000000)  returns 0x00 (0000ms, 0816ms total)
T1460 001:032 JLINK_WriteReg(R6, 0x00000000)  returns 0x00 (0001ms, 0816ms total)
T1460 001:033 JLINK_WriteReg(R7, 0x00000000)  returns 0x00 (0000ms, 0817ms total)
T1460 001:033 JLINK_WriteReg(R8, 0x00000000)  returns 0x00 (0000ms, 0817ms total)
T1460 001:033 JLINK_WriteReg(R9, 0x20000160)  returns 0x00 (0000ms, 0817ms total)
T1460 001:033 JLINK_WriteReg(R10, 0x00000000)  returns 0x00 (0000ms, 0817ms total)
T1460 001:033 JLINK_WriteReg(R11, 0x00000000)  returns 0x00 (0000ms, 0817ms total)
T1460 001:033 JLINK_WriteReg(R12, 0x00000000)  returns 0x00 (0000ms, 0817ms total)
T1460 001:033 JLINK_WriteReg(R13, 0x20000800)  returns 0x00 (0000ms, 0817ms total)
T1460 001:033 JLINK_WriteReg(R14, 0x20000001)  returns 0x00 (0000ms, 0817ms total)
T1460 001:033 JLINK_WriteReg(R15, 0x200000F4)  returns 0x00 (0000ms, 0817ms total)
T1460 001:033 JLINK_WriteReg(XPSR, 0x01000000)  returns 0x00 (0000ms, 0817ms total)
T1460 001:033 JLINK_WriteReg(MSP, 0x20000800)  returns 0x00 (0000ms, 0817ms total)
T1460 001:033 JLINK_WriteReg(PSP, 0x20000800)  returns 0x00 (0000ms, 0817ms total)
T1460 001:033 JLINK_WriteReg(CFBP, 0x00000000)  returns 0x00 (0000ms, 0817ms total)
T1460 001:033 JLINK_SetBPEx(Addr = 0x20000000, Type = 0xFFFFFFF2)  returns 0x00000006 (0000ms, 0817ms total)
T1460 001:033 JLINK_Go() -- CPU_WriteMem(4 bytes @ 0xE0002008) -- CPU_WriteMem(4 bytes @ 0xE000200C) -- CPU_WriteMem(4 bytes @ 0xE0002010) -- CPU_WriteMem(4 bytes @ 0xE0002014) -- CPU_WriteMem(4 bytes @ 0xE0002018) -- CPU_WriteMem(4 bytes @ 0xE000201C) (0008ms, 0817ms total)
T1460 001:041 JLINK_IsHalted()  returns FALSE (0001ms, 0825ms total)
T1460 001:092 JLINK_IsHalted() -- CPU_ReadMem(2 bytes @ 0x20000000)  returns TRUE (0004ms, 0825ms total)
T1460 001:096 JLINK_ReadReg(R15)  returns 0x20000000 (0000ms, 0825ms total)
T1460 001:096 JLINK_ClrBPEx(BPHandle = 0x00000006)  returns 0x00 (0000ms, 0825ms total)
T1460 001:096 JLINK_ReadReg(R0)  returns 0x00000000 (0000ms, 0825ms total)
T1460 001:097 JLINK_WriteMem(0x20000164, 0x0400 Bytes, ...) -- Data:  20 68 00 88 10 F0 80 0F FA D0 30 78 21 68 88 80 ... -- CPU_WriteMem(1024 bytes @ 0x20000164)  returns 0x400 (0006ms, 0825ms total)
T1460 001:103 JLINK_WriteReg(R0, 0x08000800)  returns 0x00 (0000ms, 0831ms total)
T1460 001:103 JLINK_WriteReg(R1, 0x00000400)  returns 0x00 (0000ms, 0831ms total)
T1460 001:103 JLINK_WriteReg(R2, 0x20000164)  returns 0x00 (0000ms, 0831ms total)
T1460 001:103 JLINK_WriteReg(R3, 0x00000000)  returns 0x00 (0000ms, 0831ms total)
T1460 001:103 JLINK_WriteReg(R4, 0x00000000)  returns 0x00 (0000ms, 0831ms total)
T1460 001:103 JLINK_WriteReg(R5, 0x00000000)  returns 0x00 (0000ms, 0831ms total)
T1460 001:103 JLINK_WriteReg(R6, 0x00000000)  returns 0x00 (0000ms, 0831ms total)
T1460 001:103 JLINK_WriteReg(R7, 0x00000000)  returns 0x00 (0000ms, 0831ms total)
T1460 001:103 JLINK_WriteReg(R8, 0x00000000)  returns 0x00 (0000ms, 0831ms total)
T1460 001:103 JLINK_WriteReg(R9, 0x20000160)  returns 0x00 (0000ms, 0831ms total)
T1460 001:103 JLINK_WriteReg(R10, 0x00000000)  returns 0x00 (0000ms, 0831ms total)
T1460 001:103 JLINK_WriteReg(R11, 0x00000000)  returns 0x00 (0000ms, 0831ms total)
T1460 001:103 JLINK_WriteReg(R12, 0x00000000)  returns 0x00 (0000ms, 0831ms total)
T1460 001:103 JLINK_WriteReg(R13, 0x20000800)  returns 0x00 (0000ms, 0831ms total)
T1460 001:103 JLINK_WriteReg(R14, 0x20000001)  returns 0x00 (0000ms, 0831ms total)
T1460 001:103 JLINK_WriteReg(R15, 0x200000F4)  returns 0x00 (0000ms, 0831ms total)
T1460 001:103 JLINK_WriteReg(XPSR, 0x01000000)  returns 0x00 (0000ms, 0831ms total)
T1460 001:103 JLINK_WriteReg(MSP, 0x20000800)  returns 0x00 (0000ms, 0831ms total)
T1460 001:103 JLINK_WriteReg(PSP, 0x20000800)  returns 0x00 (0000ms, 0831ms total)
T1460 001:103 JLINK_WriteReg(CFBP, 0x00000000)  returns 0x00 (0001ms, 0831ms total)
T1460 001:104 JLINK_SetBPEx(Addr = 0x20000000, Type = 0xFFFFFFF2)  returns 0x00000007 (0000ms, 0832ms total)
T1460 001:104 JLINK_Go() -- CPU_WriteMem(4 bytes @ 0xE0002008) -- CPU_WriteMem(4 bytes @ 0xE000200C) -- CPU_WriteMem(4 bytes @ 0xE0002010) -- CPU_WriteMem(4 bytes @ 0xE0002014) -- CPU_WriteMem(4 bytes @ 0xE0002018) -- CPU_WriteMem(4 bytes @ 0xE000201C) (0007ms, 0832ms total)
T1460 001:111 JLINK_IsHalted()  returns FALSE (0001ms, 0839ms total)
T1460 001:162 JLINK_IsHalted() -- CPU_ReadMem(2 bytes @ 0x20000000)  returns TRUE (0004ms, 0839ms total)
T1460 001:166 JLINK_ReadReg(R15)  returns 0x20000000 (0000ms, 0839ms total)
T1460 001:166 JLINK_ClrBPEx(BPHandle = 0x00000007)  returns 0x00 (0000ms, 0839ms total)
T1460 001:166 JLINK_ReadReg(R0)  returns 0x00000000 (0000ms, 0839ms total)
T1460 001:167 JLINK_WriteMem(0x20000164, 0x0400 Bytes, ...) -- Data:  04 46 00 25 00 27 FC 4E A8 46 20 68 01 28 01 D0 ... -- CPU_WriteMem(1024 bytes @ 0x20000164)  returns 0x400 (0006ms, 0839ms total)
T1460 001:173 JLINK_WriteReg(R0, 0x08000C00)  returns 0x00 (0000ms, 0845ms total)
T1460 001:173 JLINK_WriteReg(R1, 0x00000400)  returns 0x00 (0000ms, 0845ms total)
T1460 001:173 JLINK_WriteReg(R2, 0x20000164)  returns 0x00 (0000ms, 0845ms total)
T1460 001:173 JLINK_WriteReg(R3, 0x00000000)  returns 0x00 (0000ms, 0845ms total)
T1460 001:173 JLINK_WriteReg(R4, 0x00000000)  returns 0x00 (0000ms, 0845ms total)
T1460 001:173 JLINK_WriteReg(R5, 0x00000000)  returns 0x00 (0000ms, 0845ms total)
T1460 001:173 JLINK_WriteReg(R6, 0x00000000)  returns 0x00 (0000ms, 0845ms total)
T1460 001:173 JLINK_WriteReg(R7, 0x00000000)  returns 0x00 (0000ms, 0845ms total)
T1460 001:173 JLINK_WriteReg(R8, 0x00000000)  returns 0x00 (0000ms, 0845ms total)
T1460 001:173 JLINK_WriteReg(R9, 0x20000160)  returns 0x00 (0000ms, 0845ms total)
T1460 001:173 JLINK_WriteReg(R10, 0x00000000)  returns 0x00 (0000ms, 0845ms total)
T1460 001:173 JLINK_WriteReg(R11, 0x00000000)  returns 0x00 (0000ms, 0845ms total)
T1460 001:173 JLINK_WriteReg(R12, 0x00000000)  returns 0x00 (0000ms, 0845ms total)
T1460 001:173 JLINK_WriteReg(R13, 0x20000800)  returns 0x00 (0000ms, 0845ms total)
T1460 001:173 JLINK_WriteReg(R14, 0x20000001)  returns 0x00 (0000ms, 0845ms total)
T1460 001:173 JLINK_WriteReg(R15, 0x200000F4)  returns 0x00 (0000ms, 0845ms total)
T1460 001:173 JLINK_WriteReg(XPSR, 0x01000000)  returns 0x00 (0000ms, 0845ms total)
T1460 001:173 JLINK_WriteReg(MSP, 0x20000800)  returns 0x00 (0000ms, 0845ms total)
T1460 001:173 JLINK_WriteReg(PSP, 0x20000800)  returns 0x00 (0000ms, 0845ms total)
T1460 001:173 JLINK_WriteReg(CFBP, 0x00000000)  returns 0x00 (0000ms, 0845ms total)
T1460 001:173 JLINK_SetBPEx(Addr = 0x20000000, Type = 0xFFFFFFF2)  returns 0x00000008 (0000ms, 0845ms total)
T1460 001:173 JLINK_Go() -- CPU_WriteMem(4 bytes @ 0xE0002008) -- CPU_WriteMem(4 bytes @ 0xE000200C) -- CPU_WriteMem(4 bytes @ 0xE0002010) -- CPU_WriteMem(4 bytes @ 0xE0002014) -- CPU_WriteMem(4 bytes @ 0xE0002018) -- CPU_WriteMem(4 bytes @ 0xE000201C) (0007ms, 0845ms total)
T1460 001:180 JLINK_IsHalted()  returns FALSE (0001ms, 0852ms total)
T1460 001:231 JLINK_IsHalted() -- CPU_ReadMem(2 bytes @ 0x20000000)  returns TRUE (0004ms, 0852ms total)
T1460 001:235 JLINK_ReadReg(R15)  returns 0x20000000 (0000ms, 0852ms total)
T1460 001:235 JLINK_ClrBPEx(BPHandle = 0x00000008)  returns 0x00 (0000ms, 0852ms total)
T1460 001:235 JLINK_ReadReg(R0)  returns 0x00000000 (0000ms, 0852ms total)
T1460 001:236 JLINK_WriteMem(0x20000164, 0x0400 Bytes, ...) -- Data:  32 5F 65 74 68 2E 63 00 BB 21 AF F2 10 00 FF F7 ... -- CPU_WriteMem(1024 bytes @ 0x20000164)  returns 0x400 (0006ms, 0852ms total)
T1460 001:242 JLINK_WriteReg(R0, 0x08001000)  returns 0x00 (0000ms, 0858ms total)
T1460 001:242 JLINK_WriteReg(R1, 0x00000400)  returns 0x00 (0000ms, 0858ms total)
T1460 001:242 JLINK_WriteReg(R2, 0x20000164)  returns 0x00 (0000ms, 0858ms total)
T1460 001:242 JLINK_WriteReg(R3, 0x00000000)  returns 0x00 (0000ms, 0858ms total)
T1460 001:242 JLINK_WriteReg(R4, 0x00000000)  returns 0x00 (0000ms, 0858ms total)
T1460 001:242 JLINK_WriteReg(R5, 0x00000000)  returns 0x00 (0000ms, 0858ms total)
T1460 001:242 JLINK_WriteReg(R6, 0x00000000)  returns 0x00 (0000ms, 0858ms total)
T1460 001:242 JLINK_WriteReg(R7, 0x00000000)  returns 0x00 (0000ms, 0858ms total)
T1460 001:242 JLINK_WriteReg(R8, 0x00000000)  returns 0x00 (0000ms, 0858ms total)
T1460 001:242 JLINK_WriteReg(R9, 0x20000160)  returns 0x00 (0000ms, 0858ms total)
T1460 001:242 JLINK_WriteReg(R10, 0x00000000)  returns 0x00 (0000ms, 0858ms total)
T1460 001:242 JLINK_WriteReg(R11, 0x00000000)  returns 0x00 (0000ms, 0858ms total)
T1460 001:242 JLINK_WriteReg(R12, 0x00000000)  returns 0x00 (0000ms, 0858ms total)
T1460 001:242 JLINK_WriteReg(R13, 0x20000800)  returns 0x00 (0000ms, 0858ms total)
T1460 001:242 JLINK_WriteReg(R14, 0x20000001)  returns 0x00 (0000ms, 0858ms total)
T1460 001:242 JLINK_WriteReg(R15, 0x200000F4)  returns 0x00 (0000ms, 0858ms total)
T1460 001:242 JLINK_WriteReg(XPSR, 0x01000000)  returns 0x00 (0000ms, 0858ms total)
T1460 001:242 JLINK_WriteReg(MSP, 0x20000800)  returns 0x00 (0000ms, 0858ms total)
T1460 001:242 JLINK_WriteReg(PSP, 0x20000800)  returns 0x00 (0000ms, 0858ms total)
T1460 001:242 JLINK_WriteReg(CFBP, 0x00000000)  returns 0x00 (0000ms, 0858ms total)
T1460 001:242 JLINK_SetBPEx(Addr = 0x20000000, Type = 0xFFFFFFF2)  returns 0x00000009 (0000ms, 0858ms total)
T1460 001:242 JLINK_Go() -- CPU_WriteMem(4 bytes @ 0xE0002008) -- CPU_WriteMem(4 bytes @ 0xE000200C) -- CPU_WriteMem(4 bytes @ 0xE0002010) -- CPU_WriteMem(4 bytes @ 0xE0002014) -- CPU_WriteMem(4 bytes @ 0xE0002018) -- CPU_WriteMem(4 bytes @ 0xE000201C) (0007ms, 0858ms total)
T1460 001:249 JLINK_IsHalted()  returns FALSE (0001ms, 0865ms total)
T1460 001:300 JLINK_IsHalted() -- CPU_ReadMem(2 bytes @ 0x20000000)  returns TRUE (0004ms, 0865ms total)
T1460 001:304 JLINK_ReadReg(R15)  returns 0x20000000 (0000ms, 0865ms total)
T1460 001:304 JLINK_ClrBPEx(BPHandle = 0x00000009)  returns 0x00 (0000ms, 0865ms total)
T1460 001:304 JLINK_ReadReg(R0)  returns 0x00000000 (0000ms, 0865ms total)
T1460 001:305 JLINK_WriteMem(0x20000164, 0x0400 Bytes, ...) -- Data:  20 F4 00 50 52 49 88 61 10 BD 10 B5 04 46 0C B1 ... -- CPU_WriteMem(1024 bytes @ 0x20000164)  returns 0x400 (0006ms, 0865ms total)
T1460 001:311 JLINK_WriteReg(R0, 0x08001400)  returns 0x00 (0000ms, 0871ms total)
T1460 001:311 JLINK_WriteReg(R1, 0x00000400)  returns 0x00 (0000ms, 0871ms total)
T1460 001:311 JLINK_WriteReg(R2, 0x20000164)  returns 0x00 (0000ms, 0871ms total)
T1460 001:311 JLINK_WriteReg(R3, 0x00000000)  returns 0x00 (0000ms, 0871ms total)
T1460 001:311 JLINK_WriteReg(R4, 0x00000000)  returns 0x00 (0000ms, 0871ms total)
T1460 001:311 JLINK_WriteReg(R5, 0x00000000)  returns 0x00 (0000ms, 0871ms total)
T1460 001:311 JLINK_WriteReg(R6, 0x00000000)  returns 0x00 (0000ms, 0871ms total)
T1460 001:311 JLINK_WriteReg(R7, 0x00000000)  returns 0x00 (0000ms, 0871ms total)
T1460 001:311 JLINK_WriteReg(R8, 0x00000000)  returns 0x00 (0000ms, 0871ms total)
T1460 001:311 JLINK_WriteReg(R9, 0x20000160)  returns 0x00 (0000ms, 0871ms total)
T1460 001:311 JLINK_WriteReg(R10, 0x00000000)  returns 0x00 (0000ms, 0871ms total)
T1460 001:311 JLINK_WriteReg(R11, 0x00000000)  returns 0x00 (0000ms, 0871ms total)
T1460 001:311 JLINK_WriteReg(R12, 0x00000000)  returns 0x00 (0000ms, 0871ms total)
T1460 001:311 JLINK_WriteReg(R13, 0x20000800)  returns 0x00 (0000ms, 0871ms total)
T1460 001:311 JLINK_WriteReg(R14, 0x20000001)  returns 0x00 (0000ms, 0871ms total)
T1460 001:311 JLINK_WriteReg(R15, 0x200000F4)  returns 0x00 (0000ms, 0871ms total)
T1460 001:311 JLINK_WriteReg(XPSR, 0x01000000)  returns 0x00 (0000ms, 0871ms total)
T1460 001:311 JLINK_WriteReg(MSP, 0x20000800)  returns 0x00 (0000ms, 0871ms total)
T1460 001:311 JLINK_WriteReg(PSP, 0x20000800)  returns 0x00 (0000ms, 0871ms total)
T1460 001:311 JLINK_WriteReg(CFBP, 0x00000000)  returns 0x00 (0000ms, 0871ms total)
T1460 001:311 JLINK_SetBPEx(Addr = 0x20000000, Type = 0xFFFFFFF2)  returns 0x0000000A (0000ms, 0871ms total)
T1460 001:311 JLINK_Go() -- CPU_WriteMem(4 bytes @ 0xE0002008) -- CPU_WriteMem(4 bytes @ 0xE000200C) -- CPU_WriteMem(4 bytes @ 0xE0002010) -- CPU_WriteMem(4 bytes @ 0xE0002014) -- CPU_WriteMem(4 bytes @ 0xE0002018) -- CPU_WriteMem(4 bytes @ 0xE000201C) (0007ms, 0871ms total)
T1460 001:318 JLINK_IsHalted()  returns FALSE (0001ms, 0878ms total)
T1460 001:369 JLINK_IsHalted() -- CPU_ReadMem(2 bytes @ 0x20000000)  returns TRUE (0004ms, 0878ms total)
T1460 001:373 JLINK_ReadReg(R15)  returns 0x20000000 (0000ms, 0878ms total)
T1460 001:373 JLINK_ClrBPEx(BPHandle = 0x0000000A)  returns 0x00 (0000ms, 0878ms total)
T1460 001:373 JLINK_ReadReg(R0)  returns 0x00000000 (0000ms, 0878ms total)
T1460 001:374 JLINK_WriteMem(0x20000164, 0x0400 Bytes, ...) -- Data:  FE F7 72 FD 0C B1 01 2C 00 D1 05 E0 40 F2 DB 21 ... -- CPU_WriteMem(1024 bytes @ 0x20000164)  returns 0x400 (0006ms, 0878ms total)
T1460 001:380 JLINK_WriteReg(R0, 0x08001800)  returns 0x00 (0000ms, 0884ms total)
T1460 001:380 JLINK_WriteReg(R1, 0x00000400)  returns 0x00 (0000ms, 0884ms total)
T1460 001:380 JLINK_WriteReg(R2, 0x20000164)  returns 0x00 (0000ms, 0884ms total)
T1460 001:380 JLINK_WriteReg(R3, 0x00000000)  returns 0x00 (0000ms, 0884ms total)
T1460 001:380 JLINK_WriteReg(R4, 0x00000000)  returns 0x00 (0000ms, 0884ms total)
T1460 001:380 JLINK_WriteReg(R5, 0x00000000)  returns 0x00 (0000ms, 0884ms total)
T1460 001:380 JLINK_WriteReg(R6, 0x00000000)  returns 0x00 (0000ms, 0884ms total)
T1460 001:380 JLINK_WriteReg(R7, 0x00000000)  returns 0x00 (0000ms, 0884ms total)
T1460 001:380 JLINK_WriteReg(R8, 0x00000000)  returns 0x00 (0000ms, 0884ms total)
T1460 001:380 JLINK_WriteReg(R9, 0x20000160)  returns 0x00 (0000ms, 0884ms total)
T1460 001:380 JLINK_WriteReg(R10, 0x00000000)  returns 0x00 (0000ms, 0884ms total)
T1460 001:380 JLINK_WriteReg(R11, 0x00000000)  returns 0x00 (0000ms, 0884ms total)
T1460 001:380 JLINK_WriteReg(R12, 0x00000000)  returns 0x00 (0000ms, 0884ms total)
T1460 001:380 JLINK_WriteReg(R13, 0x20000800)  returns 0x00 (0000ms, 0884ms total)
T1460 001:380 JLINK_WriteReg(R14, 0x20000001)  returns 0x00 (0000ms, 0884ms total)
T1460 001:380 JLINK_WriteReg(R15, 0x200000F4)  returns 0x00 (0000ms, 0884ms total)
T1460 001:380 JLINK_WriteReg(XPSR, 0x01000000)  returns 0x00 (0000ms, 0884ms total)
T1460 001:380 JLINK_WriteReg(MSP, 0x20000800)  returns 0x00 (0000ms, 0884ms total)
T1460 001:380 JLINK_WriteReg(PSP, 0x20000800)  returns 0x00 (0000ms, 0884ms total)
T1460 001:380 JLINK_WriteReg(CFBP, 0x00000000)  returns 0x00 (0001ms, 0884ms total)
T1460 001:381 JLINK_SetBPEx(Addr = 0x20000000, Type = 0xFFFFFFF2)  returns 0x0000000B (0000ms, 0885ms total)
T1460 001:381 JLINK_Go() -- CPU_WriteMem(4 bytes @ 0xE0002008) -- CPU_WriteMem(4 bytes @ 0xE000200C) -- CPU_WriteMem(4 bytes @ 0xE0002010) -- CPU_WriteMem(4 bytes @ 0xE0002014) -- CPU_WriteMem(4 bytes @ 0xE0002018) -- CPU_WriteMem(4 bytes @ 0xE000201C) (0006ms, 0885ms total)
T1460 001:387 JLINK_IsHalted()  returns FALSE (0001ms, 0891ms total)
T1460 001:438 JLINK_IsHalted() -- CPU_ReadMem(2 bytes @ 0x20000000)  returns TRUE (0004ms, 0891ms total)
T1460 001:442 JLINK_ReadReg(R15)  returns 0x20000000 (0000ms, 0891ms total)
T1460 001:442 JLINK_ClrBPEx(BPHandle = 0x0000000B)  returns 0x00 (0000ms, 0891ms total)
T1460 001:442 JLINK_ReadReg(R0)  returns 0x00000000 (0000ms, 0891ms total)
T1460 001:442 JLINK_WriteMem(0x20000164, 0x0400 Bytes, ...) -- Data:  B4 F5 80 3F 21 D0 B4 F5 00 4F 1E D0 B4 F5 80 4F ... -- CPU_WriteMem(1024 bytes @ 0x20000164)  returns 0x400 (0007ms, 0891ms total)
T1460 001:449 JLINK_WriteReg(R0, 0x08001C00)  returns 0x00 (0000ms, 0898ms total)
T1460 001:449 JLINK_WriteReg(R1, 0x00000400)  returns 0x00 (0000ms, 0898ms total)
T1460 001:449 JLINK_WriteReg(R2, 0x20000164)  returns 0x00 (0000ms, 0898ms total)
T1460 001:449 JLINK_WriteReg(R3, 0x00000000)  returns 0x00 (0000ms, 0898ms total)
T1460 001:449 JLINK_WriteReg(R4, 0x00000000)  returns 0x00 (0000ms, 0898ms total)
T1460 001:449 JLINK_WriteReg(R5, 0x00000000)  returns 0x00 (0000ms, 0898ms total)
T1460 001:449 JLINK_WriteReg(R6, 0x00000000)  returns 0x00 (0000ms, 0898ms total)
T1460 001:449 JLINK_WriteReg(R7, 0x00000000)  returns 0x00 (0000ms, 0898ms total)
T1460 001:449 JLINK_WriteReg(R8, 0x00000000)  returns 0x00 (0000ms, 0898ms total)
T1460 001:449 JLINK_WriteReg(R9, 0x20000160)  returns 0x00 (0000ms, 0898ms total)
T1460 001:449 JLINK_WriteReg(R10, 0x00000000)  returns 0x00 (0000ms, 0898ms total)
T1460 001:449 JLINK_WriteReg(R11, 0x00000000)  returns 0x00 (0000ms, 0898ms total)
T1460 001:449 JLINK_WriteReg(R12, 0x00000000)  returns 0x00 (0000ms, 0898ms total)
T1460 001:449 JLINK_WriteReg(R13, 0x20000800)  returns 0x00 (0000ms, 0898ms total)
T1460 001:449 JLINK_WriteReg(R14, 0x20000001)  returns 0x00 (0000ms, 0898ms total)
T1460 001:449 JLINK_WriteReg(R15, 0x200000F4)  returns 0x00 (0000ms, 0898ms total)
T1460 001:449 JLINK_WriteReg(XPSR, 0x01000000)  returns 0x00 (0000ms, 0898ms total)
T1460 001:449 JLINK_WriteReg(MSP, 0x20000800)  returns 0x00 (0000ms, 0898ms total)
T1460 001:449 JLINK_WriteReg(PSP, 0x20000800)  returns 0x00 (0000ms, 0898ms total)
T1460 001:449 JLINK_WriteReg(CFBP, 0x00000000)  returns 0x00 (0000ms, 0898ms total)
T1460 001:449 JLINK_SetBPEx(Addr = 0x20000000, Type = 0xFFFFFFF2)  returns 0x0000000C (0000ms, 0898ms total)
T1460 001:449 JLINK_Go() -- CPU_WriteMem(4 bytes @ 0xE0002008) -- CPU_WriteMem(4 bytes @ 0xE000200C) -- CPU_WriteMem(4 bytes @ 0xE0002010) -- CPU_WriteMem(4 bytes @ 0xE0002014) -- CPU_WriteMem(4 bytes @ 0xE0002018) -- CPU_WriteMem(4 bytes @ 0xE000201C) (0006ms, 0898ms total)
T1460 001:455 JLINK_IsHalted()  returns FALSE (0001ms, 0904ms total)
T1460 001:506 JLINK_IsHalted() -- CPU_ReadMem(2 bytes @ 0x20000000)  returns TRUE (0005ms, 0904ms total)
T1460 001:511 JLINK_ReadReg(R15)  returns 0x20000000 (0000ms, 0904ms total)
T1460 001:511 JLINK_ClrBPEx(BPHandle = 0x0000000C)  returns 0x00 (0000ms, 0904ms total)
T1460 001:511 JLINK_ReadReg(R0)  returns 0x00000000 (0000ms, 0904ms total)
T1460 001:511 JLINK_WriteMem(0x20000164, 0x0400 Bytes, ...) -- Data:  0C 46 0C B1 01 2C 00 D1 04 E0 40 F2 96 61 87 48 ... -- CPU_WriteMem(1024 bytes @ 0x20000164)  returns 0x400 (0006ms, 0904ms total)
T1460 001:517 JLINK_WriteReg(R0, 0x08002000)  returns 0x00 (0000ms, 0910ms total)
T1460 001:517 JLINK_WriteReg(R1, 0x00000400)  returns 0x00 (0000ms, 0910ms total)
T1460 001:517 JLINK_WriteReg(R2, 0x20000164)  returns 0x00 (0000ms, 0910ms total)
T1460 001:517 JLINK_WriteReg(R3, 0x00000000)  returns 0x00 (0000ms, 0910ms total)
T1460 001:517 JLINK_WriteReg(R4, 0x00000000)  returns 0x00 (0000ms, 0910ms total)
T1460 001:517 JLINK_WriteReg(R5, 0x00000000)  returns 0x00 (0000ms, 0910ms total)
T1460 001:517 JLINK_WriteReg(R6, 0x00000000)  returns 0x00 (0000ms, 0910ms total)
T1460 001:517 JLINK_WriteReg(R7, 0x00000000)  returns 0x00 (0000ms, 0910ms total)
T1460 001:517 JLINK_WriteReg(R8, 0x00000000)  returns 0x00 (0000ms, 0910ms total)
T1460 001:517 JLINK_WriteReg(R9, 0x20000160)  returns 0x00 (0000ms, 0910ms total)
T1460 001:517 JLINK_WriteReg(R10, 0x00000000)  returns 0x00 (0001ms, 0910ms total)
T1460 001:518 JLINK_WriteReg(R11, 0x00000000)  returns 0x00 (0000ms, 0911ms total)
T1460 001:518 JLINK_WriteReg(R12, 0x00000000)  returns 0x00 (0000ms, 0911ms total)
T1460 001:518 JLINK_WriteReg(R13, 0x20000800)  returns 0x00 (0000ms, 0911ms total)
T1460 001:518 JLINK_WriteReg(R14, 0x20000001)  returns 0x00 (0000ms, 0911ms total)
T1460 001:518 JLINK_WriteReg(R15, 0x200000F4)  returns 0x00 (0000ms, 0911ms total)
T1460 001:518 JLINK_WriteReg(XPSR, 0x01000000)  returns 0x00 (0000ms, 0911ms total)
T1460 001:518 JLINK_WriteReg(MSP, 0x20000800)  returns 0x00 (0000ms, 0911ms total)
T1460 001:518 JLINK_WriteReg(PSP, 0x20000800)  returns 0x00 (0000ms, 0911ms total)
T1460 001:518 JLINK_WriteReg(CFBP, 0x00000000)  returns 0x00 (0000ms, 0911ms total)
T1460 001:518 JLINK_SetBPEx(Addr = 0x20000000, Type = 0xFFFFFFF2)  returns 0x0000000D (0000ms, 0911ms total)
T1460 001:518 JLINK_Go() -- CPU_WriteMem(4 bytes @ 0xE0002008) -- CPU_WriteMem(4 bytes @ 0xE000200C) -- CPU_WriteMem(4 bytes @ 0xE0002010) -- CPU_WriteMem(4 bytes @ 0xE0002014) -- CPU_WriteMem(4 bytes @ 0xE0002018) -- CPU_WriteMem(4 bytes @ 0xE000201C) (0006ms, 0911ms total)
T1460 001:524 JLINK_IsHalted()  returns FALSE (0001ms, 0917ms total)
T1460 001:575 JLINK_IsHalted() -- CPU_ReadMem(2 bytes @ 0x20000000)  returns TRUE (0004ms, 0917ms total)
T1460 001:579 JLINK_ReadReg(R15)  returns 0x20000000 (0000ms, 0917ms total)
T1460 001:579 JLINK_ClrBPEx(BPHandle = 0x0000000D)  returns 0x00 (0000ms, 0917ms total)
T1460 001:579 JLINK_ReadReg(R0)  returns 0x00000000 (0000ms, 0917ms total)
T1460 001:580 JLINK_WriteMem(0x20000164, 0x0400 Bytes, ...) -- Data:  10 B5 04 46 0C B1 01 2C 00 D1 04 E0 40 F6 23 11 ... -- CPU_WriteMem(1024 bytes @ 0x20000164)  returns 0x400 (0006ms, 0917ms total)
T1460 001:586 JLINK_WriteReg(R0, 0x08002400)  returns 0x00 (0000ms, 0923ms total)
T1460 001:586 JLINK_WriteReg(R1, 0x00000400)  returns 0x00 (0000ms, 0923ms total)
T1460 001:586 JLINK_WriteReg(R2, 0x20000164)  returns 0x00 (0000ms, 0923ms total)
T1460 001:586 JLINK_WriteReg(R3, 0x00000000)  returns 0x00 (0000ms, 0923ms total)
T1460 001:586 JLINK_WriteReg(R4, 0x00000000)  returns 0x00 (0000ms, 0923ms total)
T1460 001:586 JLINK_WriteReg(R5, 0x00000000)  returns 0x00 (0000ms, 0923ms total)
T1460 001:586 JLINK_WriteReg(R6, 0x00000000)  returns 0x00 (0000ms, 0923ms total)
T1460 001:586 JLINK_WriteReg(R7, 0x00000000)  returns 0x00 (0000ms, 0923ms total)
T1460 001:586 JLINK_WriteReg(R8, 0x00000000)  returns 0x00 (0000ms, 0923ms total)
T1460 001:586 JLINK_WriteReg(R9, 0x20000160)  returns 0x00 (0000ms, 0923ms total)
T1460 001:586 JLINK_WriteReg(R10, 0x00000000)  returns 0x00 (0000ms, 0923ms total)
T1460 001:586 JLINK_WriteReg(R11, 0x00000000)  returns 0x00 (0000ms, 0923ms total)
T1460 001:586 JLINK_WriteReg(R12, 0x00000000)  returns 0x00 (0000ms, 0923ms total)
T1460 001:586 JLINK_WriteReg(R13, 0x20000800)  returns 0x00 (0000ms, 0923ms total)
T1460 001:586 JLINK_WriteReg(R14, 0x20000001)  returns 0x00 (0000ms, 0923ms total)
T1460 001:586 JLINK_WriteReg(R15, 0x200000F4)  returns 0x00 (0000ms, 0923ms total)
T1460 001:586 JLINK_WriteReg(XPSR, 0x01000000)  returns 0x00 (0000ms, 0923ms total)
T1460 001:586 JLINK_WriteReg(MSP, 0x20000800)  returns 0x00 (0000ms, 0923ms total)
T1460 001:586 JLINK_WriteReg(PSP, 0x20000800)  returns 0x00 (0000ms, 0923ms total)
T1460 001:586 JLINK_WriteReg(CFBP, 0x00000000)  returns 0x00 (0000ms, 0923ms total)
T1460 001:586 JLINK_SetBPEx(Addr = 0x20000000, Type = 0xFFFFFFF2)  returns 0x0000000E (0000ms, 0923ms total)
T1460 001:586 JLINK_Go() -- CPU_WriteMem(4 bytes @ 0xE0002008) -- CPU_WriteMem(4 bytes @ 0xE000200C) -- CPU_WriteMem(4 bytes @ 0xE0002010) -- CPU_WriteMem(4 bytes @ 0xE0002014) -- CPU_WriteMem(4 bytes @ 0xE0002018) -- CPU_WriteMem(4 bytes @ 0xE000201C) (0007ms, 0923ms total)
T1460 001:593 JLINK_IsHalted()  returns FALSE (0001ms, 0930ms total)
T1460 001:644 JLINK_IsHalted() -- CPU_ReadMem(2 bytes @ 0x20000000)  returns TRUE (0004ms, 0930ms total)
T1460 001:648 JLINK_ReadReg(R15)  returns 0x20000000 (0000ms, 0930ms total)
T1460 001:648 JLINK_ClrBPEx(BPHandle = 0x0000000E)  returns 0x00 (0000ms, 0930ms total)
T1460 001:648 JLINK_ReadReg(R0)  returns 0x00000000 (0000ms, 0930ms total)
T1460 001:648 JLINK_WriteMem(0x20000164, 0x0400 Bytes, ...) -- Data:  DC D3 46 1E 05 EB 06 16 35 60 90 4E F4 60 F0 BD ... -- CPU_WriteMem(1024 bytes @ 0x20000164)  returns 0x400 (0007ms, 0930ms total)
T1460 001:655 JLINK_WriteReg(R0, 0x08002800)  returns 0x00 (0000ms, 0937ms total)
T1460 001:655 JLINK_WriteReg(R1, 0x00000400)  returns 0x00 (0000ms, 0937ms total)
T1460 001:655 JLINK_WriteReg(R2, 0x20000164)  returns 0x00 (0000ms, 0937ms total)
T1460 001:655 JLINK_WriteReg(R3, 0x00000000)  returns 0x00 (0000ms, 0937ms total)
T1460 001:655 JLINK_WriteReg(R4, 0x00000000)  returns 0x00 (0000ms, 0937ms total)
T1460 001:655 JLINK_WriteReg(R5, 0x00000000)  returns 0x00 (0000ms, 0937ms total)
T1460 001:655 JLINK_WriteReg(R6, 0x00000000)  returns 0x00 (0000ms, 0937ms total)
T1460 001:655 JLINK_WriteReg(R7, 0x00000000)  returns 0x00 (0000ms, 0937ms total)
T1460 001:655 JLINK_WriteReg(R8, 0x00000000)  returns 0x00 (0000ms, 0937ms total)
T1460 001:655 JLINK_WriteReg(R9, 0x20000160)  returns 0x00 (0000ms, 0937ms total)
T1460 001:655 JLINK_WriteReg(R10, 0x00000000)  returns 0x00 (0000ms, 0937ms total)
T1460 001:655 JLINK_WriteReg(R11, 0x00000000)  returns 0x00 (0000ms, 0937ms total)
T1460 001:655 JLINK_WriteReg(R12, 0x00000000)  returns 0x00 (0000ms, 0937ms total)
T1460 001:655 JLINK_WriteReg(R13, 0x20000800)  returns 0x00 (0000ms, 0937ms total)
T1460 001:655 JLINK_WriteReg(R14, 0x20000001)  returns 0x00 (0000ms, 0937ms total)
T1460 001:655 JLINK_WriteReg(R15, 0x200000F4)  returns 0x00 (0000ms, 0937ms total)
T1460 001:655 JLINK_WriteReg(XPSR, 0x01000000)  returns 0x00 (0000ms, 0937ms total)
T1460 001:655 JLINK_WriteReg(MSP, 0x20000800)  returns 0x00 (0000ms, 0937ms total)
T1460 001:655 JLINK_WriteReg(PSP, 0x20000800)  returns 0x00 (0000ms, 0937ms total)
T1460 001:655 JLINK_WriteReg(CFBP, 0x00000000)  returns 0x00 (0000ms, 0937ms total)
T1460 001:655 JLINK_SetBPEx(Addr = 0x20000000, Type = 0xFFFFFFF2)  returns 0x0000000F (0000ms, 0937ms total)
T1460 001:655 JLINK_Go() -- CPU_WriteMem(4 bytes @ 0xE0002008) -- CPU_WriteMem(4 bytes @ 0xE000200C) -- CPU_WriteMem(4 bytes @ 0xE0002010) -- CPU_WriteMem(4 bytes @ 0xE0002014) -- CPU_WriteMem(4 bytes @ 0xE0002018) -- CPU_WriteMem(4 bytes @ 0xE000201C) (0007ms, 0937ms total)
T1460 001:662 JLINK_IsHalted()  returns FALSE (0001ms, 0944ms total)
T1460 001:713 JLINK_IsHalted() -- CPU_ReadMem(2 bytes @ 0x20000000)  returns TRUE (0004ms, 0944ms total)
T1460 001:717 JLINK_ReadReg(R15)  returns 0x20000000 (0000ms, 0944ms total)
T1460 001:717 JLINK_ClrBPEx(BPHandle = 0x0000000F)  returns 0x00 (0000ms, 0944ms total)
T1460 001:717 JLINK_ReadReg(R0)  returns 0x00000000 (0000ms, 0944ms total)
T1460 001:717 JLINK_WriteMem(0x20000164, 0x0400 Bytes, ...) -- Data:  FF 30 70 BD 00 E0 00 BF 00 BF 00 20 F9 E7 2D E9 ... -- CPU_WriteMem(1024 bytes @ 0x20000164)  returns 0x400 (0006ms, 0944ms total)
T1460 001:723 JLINK_WriteReg(R0, 0x08002C00)  returns 0x00 (0000ms, 0950ms total)
T1460 001:723 JLINK_WriteReg(R1, 0x00000400)  returns 0x00 (0000ms, 0950ms total)
T1460 001:723 JLINK_WriteReg(R2, 0x20000164)  returns 0x00 (0000ms, 0950ms total)
